
T45C0 000:225 SEGGER J-Link V5.10h Log File (0014ms, 0082ms total)
T45C0 000:225 DLL Compiled: Jan 21 2016 19:24:29 (0014ms, 0082ms total)
T45C0 000:225 Logging started @ 2020-12-20 15:06 (0014ms, 0082ms total)
T45C0 000:239 JLINK_SetWarnOutHandler(...) (0000ms, 0082ms total)
T45C0 000:239 JLINK_OpenEx(...)
Firmware: J-Link ARM-OB STM32 compiled Aug 22 2012 19:52:04
Hardware: V7.00
S/N: 20090931
Feature(s): RDI,FlashDL,FlashBP,JFlash,GDBFull  returns O.K. (0071ms, 0153ms total)
T45C0 000:310 JLINK_SetErrorOutHandler(...) (0000ms, 0153ms total)
T45C0 000:310 JLINK_ExecCommand("ProjectFile = "E:\2020 NCU\2020 ²½±ø´úÂë\ÔÆÌ¨\MDK-ARM\JLinkSettings.ini"", ...)Device "CORTEX-M4" selected.  returns 0x00 (0023ms, 0176ms total)
T45C0 000:395 JLINK_ExecCommand("Device = STM32F407IGHx", ...)Device "STM32F407IG" selected.  returns 0x00 (0054ms, 0230ms total)
T45C0 000:449 JLINK_ExecCommand("DisableConnectionTimeout", ...)  returns 0x01 (0000ms, 0230ms total)
T45C0 000:449 JLINK_GetHardwareVersion()  returns 0x11170 (0000ms, 0230ms total)
T45C0 000:449 JLINK_GetDLLVersion()  returns 51008 (0000ms, 0230ms total)
T45C0 000:449 JLINK_GetFirmwareString(...) (0000ms, 0230ms total)
T45C0 000:540 JLINK_GetDLLVersion()  returns 51008 (0000ms, 0230ms total)
T45C0 000:540 JLINK_GetCompileDateTime() (0000ms, 0230ms total)
T45C0 000:550 JLINK_GetFirmwareString(...) (0000ms, 0230ms total)
T45C0 000:565 JLINK_GetHardwareVersion()  returns 0x11170 (0000ms, 0230ms total)
T45C0 000:616 JLINK_TIF_Select(JLINKARM_TIF_SWD)  returns 0x00 (0001ms, 0231ms total)
T45C0 000:617 JLINK_SetSpeed(5000) (0000ms, 0231ms total)
T45C0 000:617 JLINK_GetId() >0x108 TIF>Found SWD-DP with ID 0x2BA01477 >0x0D TIF> >0x28 TIF> >0x0D TIF> >0x28 TIF> >0x0D TIF> >0x28 TIF> >0x0D TIF> >0x28 TIF> >0x0D TIF> >0x21 TIF> >0x0D TIF> >0x28 TIF> >0x0D TIF> >0x28 TIF> >0x0D TIF> >0x28 TIF> >0x0D TIF> >0x21 TIF> >0x0D TIF> >0x21 TIF> >0x0D TIF> >0x28 TIF> >0x0D TIF> >0x21 TIF> >0x0D TIF> >0x21 TIF> >0x0D TIF> >0x28 TIF> >0x0D TIF> >0x28 TIF> >0x0D TIF> >0x28 TIF> >0x0D TIF> >0x21 TIF> >0x0D TIF> >0x21 TIF> >0x0D TIF> >0x28 TIF> >0x0D TIF>
 >0x28 TIF> >0x0D TIF> >0x28 TIF> >0x0D TIF> >0x21 TIF> >0x0D TIF> >0x21 TIF> >0x0D TIF> >0x28 TIF> >0x0D TIF> >0x21 TIF> >0x0D TIF> >0x21 TIF> >0x108 TIF>Found SWD-DP with ID 0x2BA01477 >0x0D TIF> >0x28 TIF> >0x0D TIF> >0x28 TIF> >0x0D TIF> >0x28 TIF> >0x0D TIF> >0x28 TIF> >0x0D TIF> >0x21 TIF> >0x0D TIF> >0x28 TIF> >0x0D TIF> >0x28 TIF> >0x0D TIF> >0x21 TIF> >0x0D TIF> >0x21 TIF> >0x0D TIF> >0x21 TIF> >0x0D TIF> >0x28 TIF> >0x0D TIF> >0x28 TIF> >0x0D TIF> >0x28 TIF> >0x0D TIF> >0x21 TIF> >0x0D TIF>
 >0x21 TIF> >0x0D TIF> >0x28 TIF> >0x0D TIF> >0x21 TIF> >0x0D TIF> >0x21 TIF>Found Cortex-M4 r0p1, Little endian. -- CPU_ReadMem(4 bytes @ 0xE000EDF0) -- CPU_WriteMem(4 bytes @ 0xE000EDF0) -- CPU_ReadMem(4 bytes @ 0xE0002000)FPUnit: 6 code (BP) slots and 2 literal slots -- CPU_ReadMem(4 bytes @ 0xE000EDFC) -- CPU_WriteMem(4 bytes @ 0xE000EDFC) -- CPU_ReadMem(4 bytes @ 0xE0001000) -- CPU_WriteMem(4 bytes @ 0xE0001000) -- CPU_ReadMem(4 bytes @ 0xE000ED88) -- CPU_WriteMem(4 bytes @ 0xE000ED88)
 -- CPU_ReadMem(4 bytes @ 0xE000ED88) -- CPU_WriteMem(4 bytes @ 0xE000ED88)CoreSight components:ROMTbl 0 @ E00FF000 -- CPU_ReadMem(16 bytes @ 0xE00FF000) -- CPU_ReadMem(16 bytes @ 0xE000EFF0) -- CPU_ReadMem(16 bytes @ 0xE000EFE0)ROMTbl 0 [0]: FFF0F000, CID: B105E00D, PID: 000BB00C SCS -- CPU_ReadMem(16 bytes @ 0xE0001FF0) -- CPU_ReadMem(16 bytes @ 0xE0001FE0)ROMTbl 0 [1]: FFF02000, CID: B105E00D, PID: 003BB002 DWT -- CPU_ReadMem(16 bytes @ 0xE0002FF0) -- CPU_ReadMem(16 bytes @ 0xE0002FE0)
ROMTbl 0 [2]: FFF03000, CID: B105E00D, PID: 002BB003 FPB -- CPU_ReadMem(16 bytes @ 0xE0000FF0) -- CPU_ReadMem(16 bytes @ 0xE0000FE0)ROMTbl 0 [3]: FFF01000, CID: B105E00D, PID: 003BB001 ITM -- CPU_ReadMem(16 bytes @ 0xE00FF010) -- CPU_ReadMem(16 bytes @ 0xE0040FF0) -- CPU_ReadMem(16 bytes @ 0xE0040FE0)ROMTbl 0 [4]: FFF41000, CID: B105900D, PID: 000BB9A1 TPIU -- CPU_ReadMem(16 bytes @ 0xE0041FF0) -- CPU_ReadMem(16 bytes @ 0xE0041FE0)ROMTbl 0 [5]: FFF42000, CID: B105900D, PID: 000BB925 ETM >0x0D TIF>
 >0x21 TIF>  returns 0x2BA01477 (0242ms, 0473ms total)
T45C0 000:860 JLINK_GetDLLVersion()  returns 51008 (0000ms, 0473ms total)
T45C0 000:860 JLINK_CORE_GetFound()  returns 0xE0000FF (0000ms, 0473ms total)
T45C0 000:860 JLINK_GetDebugInfo(0x100) -- Value=0xE00FF000  returns 0x00 (0000ms, 0473ms total)
T45C0 000:892 JLINK_GetDebugInfo(0x100) -- Value=0xE00FF000  returns 0x00 (0000ms, 0473ms total)
T45C0 000:892 JLINK_GetDebugInfo(0x101) -- Value=0xE0041000  returns 0x00 (0000ms, 0473ms total)
T45C0 000:892 JLINK_GetDebugInfo(0x102) -- Value=0x00000000  returns 0x00 (0000ms, 0473ms total)
T45C0 000:892 JLINK_GetDebugInfo(0x103) -- Value=0xE0040000  returns 0x00 (0000ms, 0473ms total)
T45C0 000:892 JLINK_GetDebugInfo(0x104) -- Value=0xE0000000  returns 0x00 (0000ms, 0473ms total)
T45C0 000:892 JLINK_GetDebugInfo(0x105) -- Value=0xE0001000  returns 0x00 (0000ms, 0473ms total)
T45C0 000:892 JLINK_GetDebugInfo(0x106) -- Value=0xE0002000  returns 0x00 (0000ms, 0473ms total)
T45C0 000:892 JLINK_GetDebugInfo(0x107) -- Value=0xE000E000  returns 0x00 (0000ms, 0473ms total)
T45C0 000:892 JLINK_GetDebugInfo(0x10C) -- Value=0xE000EDF0  returns 0x00 (0000ms, 0473ms total)
T45C0 000:892 JLINK_ReadMemU32(0xE000EF40, 0x0001 Items, ...) -- CPU is running -- CPU_ReadMem(4 bytes @ 0xE000EF40) - Data: 21 00 11 10  returns 0x01 (0001ms, 0474ms total)
T45C0 000:893 JLINK_ReadMemU32(0xE000EF44, 0x0001 Items, ...) -- CPU is running -- CPU_ReadMem(4 bytes @ 0xE000EF44) - Data: 11 00 00 11  returns 0x01 (0000ms, 0474ms total)
T45C0 000:893 JLINK_ReadMemU32(0xE000ED00, 0x0001 Items, ...) -- CPU is running -- CPU_ReadMem(4 bytes @ 0xE000ED00) - Data: 41 C2 0F 41  returns 0x01 (0001ms, 0475ms total)
T45C0 000:894 JLINK_SetResetType(JLINKARM_RESET_TYPE_NORMAL)  returns JLINKARM_RESET_TYPE_NORMAL (0000ms, 0475ms total)
T45C0 000:894 JLINK_Reset() -- CPU is running -- CPU_WriteMem(4 bytes @ 0xE000EDF0) -- CPU is running -- CPU_WriteMem(4 bytes @ 0xE000EDFC) >0x35 TIF> -- CPU is running -- CPU_WriteMem(4 bytes @ 0xE000ED0C) -- CPU is running -- CPU_ReadMem(4 bytes @ 0xE000EDF0) -- CPU is running -- CPU_ReadMem(4 bytes @ 0xE000EDF0) -- CPU is running -- CPU_WriteMem(4 bytes @ 0xE000EDF0) -- CPU is running -- CPU_WriteMem(4 bytes @ 0xE000EDFC) -- CPU is running -- CPU_ReadMem(4 bytes @ 0xE000EDF0)
 -- CPU_WriteMem(4 bytes @ 0xE0002000) -- CPU_ReadMem(4 bytes @ 0xE000EDFC) -- CPU_ReadMem(4 bytes @ 0xE0001000) (0019ms, 0494ms total)
T45C0 000:913 JLINK_Halt()  returns 0x00 (0000ms, 0494ms total)
T45C0 000:913 JLINK_IsHalted()  returns TRUE (0000ms, 0494ms total)
T45C0 000:913 JLINK_ReadMemU32(0xE000EDF0, 0x0001 Items, ...) -- CPU_ReadMem(4 bytes @ 0xE000EDF0) - Data: 03 00 03 00  returns 0x01 (0001ms, 0495ms total)
T45C0 000:914 JLINK_WriteU32(0xE000EDF0, 0xA05F0003) -- CPU_WriteMem(4 bytes @ 0xE000EDF0)  returns 0x00 (0000ms, 0495ms total)
T45C0 000:914 JLINK_WriteU32(0xE000EDFC, 0x01000000) -- CPU_WriteMem(4 bytes @ 0xE000EDFC)  returns 0x00 (0001ms, 0496ms total)
T45C0 000:951 JLINK_GetHWStatus(...)  returns 0x00 (0000ms, 0496ms total)
T45C0 000:985 JLINK_GetNumBPUnits(Type = 0xFFFFFF00)  returns 0x06 (0000ms, 0496ms total)
T45C0 000:985 JLINK_GetNumBPUnits(Type = 0xF0)  returns 0x2000 (0000ms, 0496ms total)
T45C0 000:985 JLINK_GetNumWPUnits()  returns 0x04 (0000ms, 0496ms total)
T45C0 001:023 JLINK_GetSpeed()  returns 0xFA0 (0000ms, 0496ms total)
T45C0 001:063 JLINK_ReadMemU32(0xE000E004, 0x0001 Items, ...) -- CPU_ReadMem(4 bytes @ 0xE000E004) - Data: 02 00 00 00  returns 0x01 (0000ms, 0496ms total)
T45C0 001:063 JLINK_ReadMemU32(0xE000E004, 0x0001 Items, ...) -- CPU_ReadMem(4 bytes @ 0xE000E004) - Data: 02 00 00 00  returns 0x01 (0001ms, 0497ms total)
T45C0 001:064 JLINK_WriteMem(0xE0001000, 0x001C Bytes, ...) - Data: 01 00 00 00 00 00 00 00 00 00 00 00 00 00 00 00 ... -- CPU_WriteMem(28 bytes @ 0xE0001000)  returns 0x1C (0001ms, 0498ms total)
T45C0 001:065 JLINK_ReadMem (0xE0001000, 0x001C Bytes, ...) -- CPU_ReadMem(28 bytes @ 0xE0001000) - Data: 01 00 00 40 00 00 00 00 00 00 00 00 00 00 00 00 ...  returns 0x00 (0001ms, 0499ms total)
T45C0 001:066 JLINK_Halt()  returns 0x00 (0000ms, 0499ms total)
T45C0 001:066 JLINK_IsHalted()  returns TRUE (0000ms, 0499ms total)
T45C0 001:077 JLINK_WriteMem(0x20000000, 0x0180 Bytes, ...) - Data: 00 BE 0A E0 0D 78 2D 06 68 40 08 24 40 00 00 D3 ... -- CPU_WriteMem(384 bytes @ 0x20000000)  returns 0x180 (0006ms, 0505ms total)
T45C0 001:083 JLINK_WriteReg(R0, 0x08000000)  returns 0x00 (0000ms, 0505ms total)
T45C0 001:083 JLINK_WriteReg(R1, 0x0A037A00)  returns 0x00 (0000ms, 0505ms total)
T45C0 001:083 JLINK_WriteReg(R2, 0x00000001)  returns 0x00 (0000ms, 0505ms total)
T45C0 001:084 JLINK_WriteReg(R3, 0x00000000)  returns 0x00 (0000ms, 0505ms total)
T45C0 001:084 JLINK_WriteReg(R4, 0x00000000)  returns 0x00 (0000ms, 0505ms total)
T45C0 001:084 JLINK_WriteReg(R5, 0x00000000)  returns 0x00 (0000ms, 0505ms total)
T45C0 001:084 JLINK_WriteReg(R6, 0x00000000)  returns 0x00 (0000ms, 0505ms total)
T45C0 001:084 JLINK_WriteReg(R7, 0x00000000)  returns 0x00 (0000ms, 0505ms total)
T45C0 001:084 JLINK_WriteReg(R8, 0x00000000)  returns 0x00 (0000ms, 0505ms total)
T45C0 001:084 JLINK_WriteReg(R9, 0x2000017C)  returns 0x00 (0000ms, 0505ms total)
T45C0 001:084 JLINK_WriteReg(R10, 0x00000000)  returns 0x00 (0000ms, 0505ms total)
T45C0 001:084 JLINK_WriteReg(R11, 0x00000000)  returns 0x00 (0000ms, 0505ms total)
T45C0 001:084 JLINK_WriteReg(R12, 0x00000000)  returns 0x00 (0000ms, 0505ms total)
T45C0 001:084 JLINK_WriteReg(R13 (SP), 0x20001000)  returns 0x00 (0000ms, 0505ms total)
T45C0 001:084 JLINK_WriteReg(R14, 0x20000001)  returns 0x00 (0000ms, 0505ms total)
T45C0 001:084 JLINK_WriteReg(R15 (PC), 0x20000054)  returns 0x00 (0000ms, 0505ms total)
T45C0 001:084 JLINK_WriteReg(XPSR, 0x01000000)  returns 0x00 (0000ms, 0505ms total)
T45C0 001:084 JLINK_WriteReg(MSP, 0x20001000)  returns 0x00 (0000ms, 0505ms total)
T45C0 001:084 JLINK_WriteReg(PSP, 0x20001000)  returns 0x00 (0000ms, 0505ms total)
T45C0 001:084 JLINK_WriteReg(CFBP, 0x00000000)  returns 0x00 (0000ms, 0505ms total)
T45C0 001:084 JLINK_SetBPEx(Addr = 0x20000000, Type = 0xFFFFFFF2) -- CPU_ReadMem(2 bytes @ 0x20000000)  returns 0x00000001 (0000ms, 0505ms total)
T45C0 001:084 JLINK_Go() -- CPU_WriteMem(2 bytes @ 0x20000000) -- CPU_ReadMem(4 bytes @ 0xE0001000) -- CPU_WriteMem(4 bytes @ 0xE0002008) -- CPU_WriteMem(4 bytes @ 0xE000200C) -- CPU_WriteMem(4 bytes @ 0xE0002010) -- CPU_WriteMem(4 bytes @ 0xE0002014) -- CPU_WriteMem(4 bytes @ 0xE0002018) -- CPU_WriteMem(4 bytes @ 0xE000201C) -- CPU_WriteMem(4 bytes @ 0xE0001004) (0006ms, 0511ms total)
T45C0 001:090 JLINK_IsHalted() -- CPU_ReadMem(2 bytes @ 0x20000000)  returns TRUE (0004ms, 0515ms total)
T45C0 001:094 JLINK_ReadReg(R15 (PC))  returns 0x20000000 (0000ms, 0511ms total)
T45C0 001:094 JLINK_ClrBPEx(BPHandle = 0x00000001)  returns 0x00 (0000ms, 0511ms total)
T45C0 001:094 JLINK_ReadReg(R0)  returns 0x00000000 (0000ms, 0511ms total)
T45C0 001:095 JLINK_WriteReg(R0, 0x08000000)  returns 0x00 (0000ms, 0511ms total)
T45C0 001:095 JLINK_WriteReg(R1, 0x00004000)  returns 0x00 (0000ms, 0511ms total)
T45C0 001:095 JLINK_WriteReg(R2, 0x000000FF)  returns 0x00 (0000ms, 0511ms total)
T45C0 001:095 JLINK_WriteReg(R3, 0x00000000)  returns 0x00 (0000ms, 0511ms total)
T45C0 001:095 JLINK_WriteReg(R4, 0x00000000)  returns 0x00 (0000ms, 0511ms total)
T45C0 001:095 JLINK_WriteReg(R5, 0x00000000)  returns 0x00 (0000ms, 0511ms total)
T45C0 001:095 JLINK_WriteReg(R6, 0x00000000)  returns 0x00 (0000ms, 0511ms total)
T45C0 001:095 JLINK_WriteReg(R7, 0x00000000)  returns 0x00 (0000ms, 0511ms total)
T45C0 001:095 JLINK_WriteReg(R8, 0x00000000)  returns 0x00 (0000ms, 0511ms total)
T45C0 001:095 JLINK_WriteReg(R9, 0x2000017C)  returns 0x00 (0000ms, 0511ms total)
T45C0 001:095 JLINK_WriteReg(R10, 0x00000000)  returns 0x00 (0000ms, 0511ms total)
T45C0 001:095 JLINK_WriteReg(R11, 0x00000000)  returns 0x00 (0000ms, 0511ms total)
T45C0 001:095 JLINK_WriteReg(R12, 0x00000000)  returns 0x00 (0001ms, 0512ms total)
T45C0 001:096 JLINK_WriteReg(R13 (SP), 0x20001000)  returns 0x00 (0000ms, 0512ms total)
T45C0 001:096 JLINK_WriteReg(R14, 0x20000001)  returns 0x00 (0000ms, 0512ms total)
T45C0 001:096 JLINK_WriteReg(R15 (PC), 0x20000020)  returns 0x00 (0000ms, 0512ms total)
T45C0 001:096 JLINK_WriteReg(XPSR, 0x01000000)  returns 0x00 (0000ms, 0512ms total)
T45C0 001:096 JLINK_WriteReg(MSP, 0x20001000)  returns 0x00 (0000ms, 0512ms total)
T45C0 001:096 JLINK_WriteReg(PSP, 0x20001000)  returns 0x00 (0000ms, 0512ms total)
T45C0 001:096 JLINK_WriteReg(CFBP, 0x00000000)  returns 0x00 (0000ms, 0512ms total)
T45C0 001:096 JLINK_SetBPEx(Addr = 0x20000000, Type = 0xFFFFFFF2)  returns 0x00000002 (0000ms, 0512ms total)
T45C0 001:096 JLINK_Go() -- CPU_ReadMem(4 bytes @ 0xE0001000) (0002ms, 0514ms total)
T45C0 001:098 JLINK_IsHalted() -- CPU_ReadMem(2 bytes @ 0x20000000)  returns TRUE (0003ms, 0517ms total)
T45C0 001:101 JLINK_ReadReg(R15 (PC))  returns 0x20000000 (0000ms, 0514ms total)
T45C0 001:101 JLINK_ClrBPEx(BPHandle = 0x00000002)  returns 0x00 (0001ms, 0515ms total)
T45C0 001:102 JLINK_ReadReg(R0)  returns 0x00000001 (0000ms, 0515ms total)
T45C0 001:102 JLINK_WriteReg(R0, 0x08000000)  returns 0x00 (0000ms, 0515ms total)
T45C0 001:102 JLINK_WriteReg(R1, 0x00004000)  returns 0x00 (0000ms, 0515ms total)
T45C0 001:102 JLINK_WriteReg(R2, 0x000000FF)  returns 0x00 (0000ms, 0515ms total)
T45C0 001:102 JLINK_WriteReg(R3, 0x00000000)  returns 0x00 (0000ms, 0515ms total)
T45C0 001:102 JLINK_WriteReg(R4, 0x00000000)  returns 0x00 (0000ms, 0515ms total)
T45C0 001:102 JLINK_WriteReg(R5, 0x00000000)  returns 0x00 (0000ms, 0515ms total)
T45C0 001:102 JLINK_WriteReg(R6, 0x00000000)  returns 0x00 (0000ms, 0515ms total)
T45C0 001:102 JLINK_WriteReg(R7, 0x00000000)  returns 0x00 (0000ms, 0515ms total)
T45C0 001:102 JLINK_WriteReg(R8, 0x00000000)  returns 0x00 (0000ms, 0515ms total)
T45C0 001:102 JLINK_WriteReg(R9, 0x2000017C)  returns 0x00 (0000ms, 0515ms total)
T45C0 001:102 JLINK_WriteReg(R10, 0x00000000)  returns 0x00 (0000ms, 0515ms total)
T45C0 001:102 JLINK_WriteReg(R11, 0x00000000)  returns 0x00 (0000ms, 0515ms total)
T45C0 001:102 JLINK_WriteReg(R12, 0x00000000)  returns 0x00 (0000ms, 0515ms total)
T45C0 001:102 JLINK_WriteReg(R13 (SP), 0x20001000)  returns 0x00 (0000ms, 0515ms total)
T45C0 001:102 JLINK_WriteReg(R14, 0x20000001)  returns 0x00 (0000ms, 0515ms total)
T45C0 001:102 JLINK_WriteReg(R15 (PC), 0x200000BC)  returns 0x00 (0000ms, 0515ms total)
T45C0 001:102 JLINK_WriteReg(XPSR, 0x01000000)  returns 0x00 (0000ms, 0515ms total)
T45C0 001:102 JLINK_WriteReg(MSP, 0x20001000)  returns 0x00 (0000ms, 0515ms total)
T45C0 001:102 JLINK_WriteReg(PSP, 0x20001000)  returns 0x00 (0000ms, 0515ms total)
T45C0 001:102 JLINK_WriteReg(CFBP, 0x00000000)  returns 0x00 (0000ms, 0515ms total)
T45C0 001:102 JLINK_SetBPEx(Addr = 0x20000000, Type = 0xFFFFFFF2)  returns 0x00000003 (0000ms, 0515ms total)
T45C0 001:102 JLINK_Go() -- CPU_ReadMem(4 bytes @ 0xE0001000) (0002ms, 0517ms total)
T45C0 001:104 JLINK_IsHalted()  returns FALSE (0000ms, 0517ms total)
T45C0 001:715 JLINK_IsHalted() -- CPU_ReadMem(2 bytes @ 0x20000000)  returns TRUE (0003ms, 0520ms total)
T45C0 001:718 JLINK_ReadReg(R15 (PC))  returns 0x20000000 (0000ms, 0517ms total)
T45C0 001:718 JLINK_ClrBPEx(BPHandle = 0x00000003)  returns 0x00 (0000ms, 0517ms total)
T45C0 001:718 JLINK_ReadReg(R0)  returns 0x00000000 (0000ms, 0517ms total)
T45C0 001:719 JLINK_WriteReg(R0, 0x08004000)  returns 0x00 (0000ms, 0517ms total)
T45C0 001:719 JLINK_WriteReg(R1, 0x00004000)  returns 0x00 (0000ms, 0517ms total)
T45C0 001:719 JLINK_WriteReg(R2, 0x000000FF)  returns 0x00 (0000ms, 0517ms total)
T45C0 001:719 JLINK_WriteReg(R3, 0x00000000)  returns 0x00 (0000ms, 0517ms total)
T45C0 001:719 JLINK_WriteReg(R4, 0x00000000)  returns 0x00 (0000ms, 0517ms total)
T45C0 001:719 JLINK_WriteReg(R5, 0x00000000)  returns 0x00 (0001ms, 0518ms total)
T45C0 001:720 JLINK_WriteReg(R6, 0x00000000)  returns 0x00 (0000ms, 0518ms total)
T45C0 001:720 JLINK_WriteReg(R7, 0x00000000)  returns 0x00 (0000ms, 0518ms total)
T45C0 001:720 JLINK_WriteReg(R8, 0x00000000)  returns 0x00 (0000ms, 0518ms total)
T45C0 001:720 JLINK_WriteReg(R9, 0x2000017C)  returns 0x00 (0000ms, 0518ms total)
T45C0 001:720 JLINK_WriteReg(R10, 0x00000000)  returns 0x00 (0000ms, 0518ms total)
T45C0 001:720 JLINK_WriteReg(R11, 0x00000000)  returns 0x00 (0000ms, 0518ms total)
T45C0 001:720 JLINK_WriteReg(R12, 0x00000000)  returns 0x00 (0000ms, 0518ms total)
T45C0 001:720 JLINK_WriteReg(R13 (SP), 0x20001000)  returns 0x00 (0000ms, 0518ms total)
T45C0 001:720 JLINK_WriteReg(R14, 0x20000001)  returns 0x00 (0000ms, 0518ms total)
T45C0 001:720 JLINK_WriteReg(R15 (PC), 0x20000020)  returns 0x00 (0000ms, 0518ms total)
T45C0 001:720 JLINK_WriteReg(XPSR, 0x01000000)  returns 0x00 (0000ms, 0518ms total)
T45C0 001:720 JLINK_WriteReg(MSP, 0x20001000)  returns 0x00 (0000ms, 0518ms total)
T45C0 001:720 JLINK_WriteReg(PSP, 0x20001000)  returns 0x00 (0000ms, 0518ms total)
T45C0 001:720 JLINK_WriteReg(CFBP, 0x00000000)  returns 0x00 (0000ms, 0518ms total)
T45C0 001:720 JLINK_SetBPEx(Addr = 0x20000000, Type = 0xFFFFFFF2)  returns 0x00000004 (0000ms, 0518ms total)
T45C0 001:720 JLINK_Go() -- CPU_ReadMem(4 bytes @ 0xE0001000) (0002ms, 0520ms total)
T45C0 001:722 JLINK_IsHalted() -- CPU_ReadMem(2 bytes @ 0x20000000)  returns TRUE (0004ms, 0524ms total)
T45C0 001:726 JLINK_ReadReg(R15 (PC))  returns 0x20000000 (0000ms, 0520ms total)
T45C0 001:726 JLINK_ClrBPEx(BPHandle = 0x00000004)  returns 0x00 (0000ms, 0520ms total)
T45C0 001:726 JLINK_ReadReg(R0)  returns 0x00000001 (0000ms, 0520ms total)
T45C0 001:726 JLINK_WriteReg(R0, 0x08004000)  returns 0x00 (0000ms, 0520ms total)
T45C0 001:726 JLINK_WriteReg(R1, 0x00004000)  returns 0x00 (0000ms, 0520ms total)
T45C0 001:726 JLINK_WriteReg(R2, 0x000000FF)  returns 0x00 (0000ms, 0520ms total)
T45C0 001:726 JLINK_WriteReg(R3, 0x00000000)  returns 0x00 (0000ms, 0520ms total)
T45C0 001:726 JLINK_WriteReg(R4, 0x00000000)  returns 0x00 (0000ms, 0520ms total)
T45C0 001:726 JLINK_WriteReg(R5, 0x00000000)  returns 0x00 (0000ms, 0520ms total)
T45C0 001:726 JLINK_WriteReg(R6, 0x00000000)  returns 0x00 (0000ms, 0520ms total)
T45C0 001:726 JLINK_WriteReg(R7, 0x00000000)  returns 0x00 (0000ms, 0520ms total)
T45C0 001:726 JLINK_WriteReg(R8, 0x00000000)  returns 0x00 (0000ms, 0520ms total)
T45C0 001:726 JLINK_WriteReg(R9, 0x2000017C)  returns 0x00 (0000ms, 0520ms total)
T45C0 001:726 JLINK_WriteReg(R10, 0x00000000)  returns 0x00 (0000ms, 0520ms total)
T45C0 001:726 JLINK_WriteReg(R11, 0x00000000)  returns 0x00 (0000ms, 0520ms total)
T45C0 001:726 JLINK_WriteReg(R12, 0x00000000)  returns 0x00 (0000ms, 0520ms total)
T45C0 001:726 JLINK_WriteReg(R13 (SP), 0x20001000)  returns 0x00 (0000ms, 0520ms total)
T45C0 001:726 JLINK_WriteReg(R14, 0x20000001)  returns 0x00 (0000ms, 0520ms total)
T45C0 001:726 JLINK_WriteReg(R15 (PC), 0x200000BC)  returns 0x00 (0000ms, 0520ms total)
T45C0 001:726 JLINK_WriteReg(XPSR, 0x01000000)  returns 0x00 (0000ms, 0520ms total)
T45C0 001:726 JLINK_WriteReg(MSP, 0x20001000)  returns 0x00 (0000ms, 0520ms total)
T45C0 001:726 JLINK_WriteReg(PSP, 0x20001000)  returns 0x00 (0000ms, 0520ms total)
T45C0 001:726 JLINK_WriteReg(CFBP, 0x00000000)  returns 0x00 (0000ms, 0520ms total)
T45C0 001:726 JLINK_SetBPEx(Addr = 0x20000000, Type = 0xFFFFFFF2)  returns 0x00000005 (0000ms, 0520ms total)
T45C0 001:726 JLINK_Go() -- CPU_ReadMem(4 bytes @ 0xE0001000) (0002ms, 0522ms total)
T45C0 001:728 JLINK_IsHalted()  returns FALSE (0001ms, 0523ms total)
T45C0 002:037 JLINK_IsHalted()  returns FALSE (0000ms, 0522ms total)
T45C0 002:124 JLINK_IsHalted() -- CPU_ReadMem(2 bytes @ 0x20000000)  returns TRUE (0003ms, 0525ms total)
T45C0 002:127 JLINK_ReadReg(R15 (PC))  returns 0x20000000 (0000ms, 0522ms total)
T45C0 002:127 JLINK_ClrBPEx(BPHandle = 0x00000005)  returns 0x00 (0000ms, 0522ms total)
T45C0 002:127 JLINK_ReadReg(R0)  returns 0x00000000 (0000ms, 0522ms total)
T45C0 002:128 JLINK_WriteReg(R0, 0x08008000)  returns 0x00 (0000ms, 0522ms total)
T45C0 002:128 JLINK_WriteReg(R1, 0x00004000)  returns 0x00 (0000ms, 0522ms total)
T45C0 002:128 JLINK_WriteReg(R2, 0x000000FF)  returns 0x00 (0000ms, 0522ms total)
T45C0 002:128 JLINK_WriteReg(R3, 0x00000000)  returns 0x00 (0000ms, 0522ms total)
T45C0 002:128 JLINK_WriteReg(R4, 0x00000000)  returns 0x00 (0000ms, 0522ms total)
T45C0 002:128 JLINK_WriteReg(R5, 0x00000000)  returns 0x00 (0000ms, 0522ms total)
T45C0 002:128 JLINK_WriteReg(R6, 0x00000000)  returns 0x00 (0000ms, 0522ms total)
T45C0 002:128 JLINK_WriteReg(R7, 0x00000000)  returns 0x00 (0001ms, 0523ms total)
T45C0 002:129 JLINK_WriteReg(R8, 0x00000000)  returns 0x00 (0000ms, 0523ms total)
T45C0 002:129 JLINK_WriteReg(R9, 0x2000017C)  returns 0x00 (0000ms, 0523ms total)
T45C0 002:129 JLINK_WriteReg(R10, 0x00000000)  returns 0x00 (0000ms, 0523ms total)
T45C0 002:129 JLINK_WriteReg(R11, 0x00000000)  returns 0x00 (0000ms, 0523ms total)
T45C0 002:129 JLINK_WriteReg(R12, 0x00000000)  returns 0x00 (0000ms, 0523ms total)
T45C0 002:129 JLINK_WriteReg(R13 (SP), 0x20001000)  returns 0x00 (0000ms, 0523ms total)
T45C0 002:129 JLINK_WriteReg(R14, 0x20000001)  returns 0x00 (0000ms, 0523ms total)
T45C0 002:129 JLINK_WriteReg(R15 (PC), 0x20000020)  returns 0x00 (0000ms, 0523ms total)
T45C0 002:129 JLINK_WriteReg(XPSR, 0x01000000)  returns 0x00 (0000ms, 0523ms total)
T45C0 002:129 JLINK_WriteReg(MSP, 0x20001000)  returns 0x00 (0000ms, 0523ms total)
T45C0 002:129 JLINK_WriteReg(PSP, 0x20001000)  returns 0x00 (0000ms, 0523ms total)
T45C0 002:129 JLINK_WriteReg(CFBP, 0x00000000)  returns 0x00 (0000ms, 0523ms total)
T45C0 002:129 JLINK_SetBPEx(Addr = 0x20000000, Type = 0xFFFFFFF2)  returns 0x00000006 (0000ms, 0523ms total)
T45C0 002:129 JLINK_Go() -- CPU_ReadMem(4 bytes @ 0xE0001000) (0002ms, 0525ms total)
T45C0 002:131 JLINK_IsHalted() -- CPU_ReadMem(2 bytes @ 0x20000000)  returns TRUE (0003ms, 0528ms total)
T45C0 002:135 JLINK_ReadReg(R15 (PC))  returns 0x20000000 (0000ms, 0525ms total)
T45C0 002:135 JLINK_ClrBPEx(BPHandle = 0x00000006)  returns 0x00 (0000ms, 0525ms total)
T45C0 002:135 JLINK_ReadReg(R0)  returns 0x00000001 (0000ms, 0525ms total)
T45C0 002:135 JLINK_WriteReg(R0, 0x08008000)  returns 0x00 (0000ms, 0525ms total)
T45C0 002:135 JLINK_WriteReg(R1, 0x00004000)  returns 0x00 (0000ms, 0525ms total)
T45C0 002:135 JLINK_WriteReg(R2, 0x000000FF)  returns 0x00 (0000ms, 0525ms total)
T45C0 002:135 JLINK_WriteReg(R3, 0x00000000)  returns 0x00 (0000ms, 0525ms total)
T45C0 002:135 JLINK_WriteReg(R4, 0x00000000)  returns 0x00 (0000ms, 0525ms total)
T45C0 002:135 JLINK_WriteReg(R5, 0x00000000)  returns 0x00 (0000ms, 0525ms total)
T45C0 002:135 JLINK_WriteReg(R6, 0x00000000)  returns 0x00 (0000ms, 0525ms total)
T45C0 002:135 JLINK_WriteReg(R7, 0x00000000)  returns 0x00 (0000ms, 0525ms total)
T45C0 002:135 JLINK_WriteReg(R8, 0x00000000)  returns 0x00 (0000ms, 0525ms total)
T45C0 002:135 JLINK_WriteReg(R9, 0x2000017C)  returns 0x00 (0000ms, 0525ms total)
T45C0 002:135 JLINK_WriteReg(R10, 0x00000000)  returns 0x00 (0000ms, 0525ms total)
T45C0 002:135 JLINK_WriteReg(R11, 0x00000000)  returns 0x00 (0000ms, 0525ms total)
T45C0 002:135 JLINK_WriteReg(R12, 0x00000000)  returns 0x00 (0000ms, 0525ms total)
T45C0 002:135 JLINK_WriteReg(R13 (SP), 0x20001000)  returns 0x00 (0000ms, 0525ms total)
T45C0 002:135 JLINK_WriteReg(R14, 0x20000001)  returns 0x00 (0000ms, 0525ms total)
T45C0 002:135 JLINK_WriteReg(R15 (PC), 0x200000BC)  returns 0x00 (0000ms, 0525ms total)
T45C0 002:135 JLINK_WriteReg(XPSR, 0x01000000)  returns 0x00 (0000ms, 0525ms total)
T45C0 002:135 JLINK_WriteReg(MSP, 0x20001000)  returns 0x00 (0000ms, 0525ms total)
T45C0 002:135 JLINK_WriteReg(PSP, 0x20001000)  returns 0x00 (0000ms, 0525ms total)
T45C0 002:135 JLINK_WriteReg(CFBP, 0x00000000)  returns 0x00 (0000ms, 0525ms total)
T45C0 002:135 JLINK_SetBPEx(Addr = 0x20000000, Type = 0xFFFFFFF2)  returns 0x00000007 (0000ms, 0525ms total)
T45C0 002:135 JLINK_Go() -- CPU_ReadMem(4 bytes @ 0xE0001000) (0002ms, 0527ms total)
T45C0 002:137 JLINK_IsHalted()  returns FALSE (0000ms, 0527ms total)
T45C0 002:145 JLINK_IsHalted()  returns FALSE (0000ms, 0527ms total)
T45C0 002:149 JLINK_IsHalted()  returns FALSE (0000ms, 0527ms total)
T45C0 002:151 JLINK_IsHalted()  returns FALSE (0000ms, 0527ms total)
T45C0 002:158 JLINK_IsHalted()  returns FALSE (0001ms, 0528ms total)
T45C0 002:161 JLINK_IsHalted()  returns FALSE (0000ms, 0527ms total)
T45C0 002:163 JLINK_IsHalted()  returns FALSE (0000ms, 0527ms total)
T45C0 002:165 JLINK_IsHalted()  returns FALSE (0000ms, 0527ms total)
T45C0 002:229 JLINK_IsHalted()  returns FALSE (0000ms, 0527ms total)
T45C0 002:231 JLINK_IsHalted()  returns FALSE (0000ms, 0527ms total)
T45C0 002:233 JLINK_IsHalted()  returns FALSE (0000ms, 0527ms total)
T45C0 002:239 JLINK_IsHalted()  returns FALSE (0000ms, 0527ms total)
T45C0 002:241 JLINK_IsHalted()  returns FALSE (0000ms, 0527ms total)
T45C0 002:248 JLINK_IsHalted()  returns FALSE (0000ms, 0527ms total)
T45C0 002:250 JLINK_IsHalted()  returns FALSE (0000ms, 0527ms total)
T45C0 002:252 JLINK_IsHalted()  returns FALSE (0000ms, 0527ms total)
T45C0 002:254 JLINK_IsHalted()  returns FALSE (0000ms, 0527ms total)
T45C0 002:256 JLINK_IsHalted()  returns FALSE (0000ms, 0527ms total)
T45C0 002:264 JLINK_IsHalted()  returns FALSE (0000ms, 0527ms total)
T45C0 002:266 JLINK_IsHalted()  returns FALSE (0000ms, 0527ms total)
T45C0 002:268 JLINK_IsHalted()  returns FALSE (0000ms, 0527ms total)
T45C0 002:270 JLINK_IsHalted()  returns FALSE (0000ms, 0527ms total)
T45C0 002:272 JLINK_IsHalted()  returns FALSE (0000ms, 0527ms total)
T45C0 002:350 JLINK_IsHalted()  returns FALSE (0000ms, 0527ms total)
T45C0 002:356 JLINK_IsHalted()  returns FALSE (0000ms, 0527ms total)
T45C0 002:358 JLINK_IsHalted()  returns FALSE (0000ms, 0527ms total)
T45C0 002:360 JLINK_IsHalted()  returns FALSE (0000ms, 0527ms total)
T45C0 002:362 JLINK_IsHalted()  returns FALSE (0000ms, 0527ms total)
T45C0 002:364 JLINK_IsHalted()  returns FALSE (0000ms, 0527ms total)
T45C0 002:366 JLINK_IsHalted()  returns FALSE (0000ms, 0527ms total)
T45C0 002:373 JLINK_IsHalted()  returns FALSE (0000ms, 0527ms total)
T45C0 002:375 JLINK_IsHalted()  returns FALSE (0000ms, 0527ms total)
T45C0 002:377 JLINK_IsHalted()  returns FALSE (0000ms, 0527ms total)
T45C0 002:379 JLINK_IsHalted()  returns FALSE (0000ms, 0527ms total)
T45C0 002:381 JLINK_IsHalted()  returns FALSE (0000ms, 0527ms total)
T45C0 002:453 JLINK_IsHalted()  returns FALSE (0000ms, 0527ms total)
T45C0 002:455 JLINK_IsHalted()  returns FALSE (0000ms, 0527ms total)
T45C0 002:457 JLINK_IsHalted()  returns FALSE (0000ms, 0527ms total)
T45C0 002:459 JLINK_IsHalted()  returns FALSE (0000ms, 0527ms total)
T45C0 002:461 JLINK_IsHalted()  returns FALSE (0000ms, 0527ms total)
T45C0 002:463 JLINK_IsHalted()  returns FALSE (0000ms, 0527ms total)
T45C0 002:465 JLINK_IsHalted()  returns FALSE (0000ms, 0527ms total)
T45C0 002:471 JLINK_IsHalted()  returns FALSE (0000ms, 0527ms total)
T45C0 002:472 JLINK_IsHalted()  returns FALSE (0001ms, 0528ms total)
T45C0 002:475 JLINK_IsHalted()  returns FALSE (0000ms, 0527ms total)
T45C0 002:477 JLINK_IsHalted()  returns FALSE (0000ms, 0527ms total)
T45C0 002:483 JLINK_IsHalted()  returns FALSE (0000ms, 0527ms total)
T45C0 002:485 JLINK_IsHalted()  returns FALSE (0000ms, 0527ms total)
T45C0 002:487 JLINK_IsHalted()  returns FALSE (0000ms, 0527ms total)
T45C0 002:489 JLINK_IsHalted()  returns FALSE (0000ms, 0527ms total)
T45C0 002:491 JLINK_IsHalted()  returns FALSE (0000ms, 0527ms total)
T45C0 002:582 JLINK_IsHalted() -- CPU_ReadMem(2 bytes @ 0x20000000)  returns TRUE (0003ms, 0530ms total)
T45C0 002:585 JLINK_ReadReg(R15 (PC))  returns 0x20000000 (0000ms, 0527ms total)
T45C0 002:585 JLINK_ClrBPEx(BPHandle = 0x00000007)  returns 0x00 (0000ms, 0527ms total)
T45C0 002:585 JLINK_ReadReg(R0)  returns 0x00000000 (0000ms, 0527ms total)
T45C0 002:588 JLINK_WriteReg(R0, 0x00000001)  returns 0x00 (0000ms, 0527ms total)
T45C0 002:588 JLINK_WriteReg(R1, 0x00004000)  returns 0x00 (0000ms, 0527ms total)
T45C0 002:588 JLINK_WriteReg(R2, 0x000000FF)  returns 0x00 (0000ms, 0527ms total)
T45C0 002:588 JLINK_WriteReg(R3, 0x00000000)  returns 0x00 (0000ms, 0527ms total)
T45C0 002:588 JLINK_WriteReg(R4, 0x00000000)  returns 0x00 (0000ms, 0527ms total)
T45C0 002:588 JLINK_WriteReg(R5, 0x00000000)  returns 0x00 (0000ms, 0527ms total)
T45C0 002:588 JLINK_WriteReg(R6, 0x00000000)  returns 0x00 (0000ms, 0527ms total)
T45C0 002:588 JLINK_WriteReg(R7, 0x00000000)  returns 0x00 (0000ms, 0527ms total)
T45C0 002:588 JLINK_WriteReg(R8, 0x00000000)  returns 0x00 (0000ms, 0527ms total)
T45C0 002:588 JLINK_WriteReg(R9, 0x2000017C)  returns 0x00 (0000ms, 0527ms total)
T45C0 002:588 JLINK_WriteReg(R10, 0x00000000)  returns 0x00 (0000ms, 0527ms total)
T45C0 002:588 JLINK_WriteReg(R11, 0x00000000)  returns 0x00 (0000ms, 0527ms total)
T45C0 002:588 JLINK_WriteReg(R12, 0x00000000)  returns 0x00 (0000ms, 0527ms total)
T45C0 002:588 JLINK_WriteReg(R13 (SP), 0x20001000)  returns 0x00 (0000ms, 0527ms total)
T45C0 002:588 JLINK_WriteReg(R14, 0x20000001)  returns 0x00 (0000ms, 0527ms total)
T45C0 002:588 JLINK_WriteReg(R15 (PC), 0x20000082)  returns 0x00 (0000ms, 0527ms total)
T45C0 002:588 JLINK_WriteReg(XPSR, 0x01000000)  returns 0x00 (0000ms, 0527ms total)
T45C0 002:588 JLINK_WriteReg(MSP, 0x20001000)  returns 0x00 (0000ms, 0527ms total)
T45C0 002:588 JLINK_WriteReg(PSP, 0x20001000)  returns 0x00 (0000ms, 0527ms total)
T45C0 002:588 JLINK_WriteReg(CFBP, 0x00000000)  returns 0x00 (0000ms, 0527ms total)
T45C0 002:588 JLINK_SetBPEx(Addr = 0x20000000, Type = 0xFFFFFFF2)  returns 0x00000008 (0000ms, 0527ms total)
T45C0 002:588 JLINK_Go() -- CPU_ReadMem(4 bytes @ 0xE0001000) (0003ms, 0530ms total)
T45C0 002:591 JLINK_IsHalted() -- CPU_ReadMem(2 bytes @ 0x20000000)  returns TRUE (0003ms, 0533ms total)
T45C0 002:594 JLINK_ReadReg(R15 (PC))  returns 0x20000000 (0000ms, 0530ms total)
T45C0 002:594 JLINK_ClrBPEx(BPHandle = 0x00000008)  returns 0x00 (0000ms, 0530ms total)
T45C0 002:594 JLINK_ReadReg(R0)  returns 0x00000000 (0000ms, 0530ms total)
T45C0 002:660 JLINK_WriteMem(0x20000000, 0x0180 Bytes, ...) - Data: 00 BE 0A E0 0D 78 2D 06 68 40 08 24 40 00 00 D3 ... -- CPU_WriteMem(384 bytes @ 0x20000000)  returns 0x180 (0005ms, 0535ms total)
T45C0 002:665 JLINK_WriteReg(R0, 0x08000000)  returns 0x00 (0000ms, 0535ms total)
T45C0 002:665 JLINK_WriteReg(R1, 0x0A037A00)  returns 0x00 (0000ms, 0535ms total)
T45C0 002:665 JLINK_WriteReg(R2, 0x00000002)  returns 0x00 (0000ms, 0535ms total)
T45C0 002:665 JLINK_WriteReg(R3, 0x00000000)  returns 0x00 (0000ms, 0535ms total)
T45C0 002:665 JLINK_WriteReg(R4, 0x00000000)  returns 0x00 (0000ms, 0535ms total)
T45C0 002:665 JLINK_WriteReg(R5, 0x00000000)  returns 0x00 (0000ms, 0535ms total)
T45C0 002:665 JLINK_WriteReg(R6, 0x00000000)  returns 0x00 (0000ms, 0535ms total)
T45C0 002:665 JLINK_WriteReg(R7, 0x00000000)  returns 0x00 (0000ms, 0535ms total)
T45C0 002:665 JLINK_WriteReg(R8, 0x00000000)  returns 0x00 (0000ms, 0535ms total)
T45C0 002:665 JLINK_WriteReg(R9, 0x2000017C)  returns 0x00 (0000ms, 0535ms total)
T45C0 002:665 JLINK_WriteReg(R10, 0x00000000)  returns 0x00 (0000ms, 0535ms total)
T45C0 002:665 JLINK_WriteReg(R11, 0x00000000)  returns 0x00 (0000ms, 0535ms total)
T45C0 002:665 JLINK_WriteReg(R12, 0x00000000)  returns 0x00 (0000ms, 0535ms total)
T45C0 002:665 JLINK_WriteReg(R13 (SP), 0x20001000)  returns 0x00 (0001ms, 0536ms total)
T45C0 002:666 JLINK_WriteReg(R14, 0x20000001)  returns 0x00 (0000ms, 0536ms total)
T45C0 002:666 JLINK_WriteReg(R15 (PC), 0x20000054)  returns 0x00 (0000ms, 0536ms total)
T45C0 002:666 JLINK_WriteReg(XPSR, 0x01000000)  returns 0x00 (0000ms, 0536ms total)
T45C0 002:666 JLINK_WriteReg(MSP, 0x20001000)  returns 0x00 (0000ms, 0536ms total)
T45C0 002:666 JLINK_WriteReg(PSP, 0x20001000)  returns 0x00 (0000ms, 0536ms total)
T45C0 002:666 JLINK_WriteReg(CFBP, 0x00000000)  returns 0x00 (0000ms, 0536ms total)
T45C0 002:666 JLINK_SetBPEx(Addr = 0x20000000, Type = 0xFFFFFFF2) -- CPU_ReadMem(2 bytes @ 0x20000000)  returns 0x00000009 (0000ms, 0536ms total)
T45C0 002:666 JLINK_Go() -- CPU_WriteMem(2 bytes @ 0x20000000) -- CPU_ReadMem(4 bytes @ 0xE0001000) (0002ms, 0538ms total)
T45C0 002:668 JLINK_IsHalted() -- CPU_ReadMem(2 bytes @ 0x20000000)  returns TRUE (0004ms, 0542ms total)
T45C0 002:672 JLINK_ReadReg(R15 (PC))  returns 0x20000000 (0000ms, 0538ms total)
T45C0 002:672 JLINK_ClrBPEx(BPHandle = 0x00000009)  returns 0x00 (0000ms, 0538ms total)
T45C0 002:672 JLINK_ReadReg(R0)  returns 0x00000000 (0000ms, 0538ms total)
T45C0 002:672 JLINK_WriteMem(0x20000180, 0x0400 Bytes, ...) - Data: 30 58 00 20 5D 02 00 08 F1 58 00 08 87 43 00 08 ... -- CPU_WriteMem(1024 bytes @ 0x20000180)  returns 0x400 (0013ms, 0551ms total)
T45C0 002:685 JLINK_WriteReg(R0, 0x08000000)  returns 0x00 (0000ms, 0551ms total)
T45C0 002:685 JLINK_WriteReg(R1, 0x00000400)  returns 0x00 (0000ms, 0551ms total)
T45C0 002:685 JLINK_WriteReg(R2, 0x20000180)  returns 0x00 (0000ms, 0551ms total)
T45C0 002:685 JLINK_WriteReg(R3, 0x00000000)  returns 0x00 (0000ms, 0551ms total)
T45C0 002:685 JLINK_WriteReg(R4, 0x00000000)  returns 0x00 (0000ms, 0551ms total)
T45C0 002:685 JLINK_WriteReg(R5, 0x00000000)  returns 0x00 (0000ms, 0551ms total)
T45C0 002:685 JLINK_WriteReg(R6, 0x00000000)  returns 0x00 (0000ms, 0551ms total)
T45C0 002:685 JLINK_WriteReg(R7, 0x00000000)  returns 0x00 (0000ms, 0551ms total)
T45C0 002:685 JLINK_WriteReg(R8, 0x00000000)  returns 0x00 (0000ms, 0551ms total)
T45C0 002:685 JLINK_WriteReg(R9, 0x2000017C)  returns 0x00 (0000ms, 0551ms total)
T45C0 002:685 JLINK_WriteReg(R10, 0x00000000)  returns 0x00 (0000ms, 0551ms total)
T45C0 002:685 JLINK_WriteReg(R11, 0x00000000)  returns 0x00 (0000ms, 0551ms total)
T45C0 002:685 JLINK_WriteReg(R12, 0x00000000)  returns 0x00 (0000ms, 0551ms total)
T45C0 002:685 JLINK_WriteReg(R13 (SP), 0x20001000)  returns 0x00 (0000ms, 0551ms total)
T45C0 002:685 JLINK_WriteReg(R14, 0x20000001)  returns 0x00 (0000ms, 0551ms total)
T45C0 002:685 JLINK_WriteReg(R15 (PC), 0x20000108)  returns 0x00 (0000ms, 0551ms total)
T45C0 002:685 JLINK_WriteReg(XPSR, 0x01000000)  returns 0x00 (0000ms, 0551ms total)
T45C0 002:685 JLINK_WriteReg(MSP, 0x20001000)  returns 0x00 (0000ms, 0551ms total)
T45C0 002:685 JLINK_WriteReg(PSP, 0x20001000)  returns 0x00 (0000ms, 0551ms total)
T45C0 002:685 JLINK_WriteReg(CFBP, 0x00000000)  returns 0x00 (0000ms, 0551ms total)
T45C0 002:685 JLINK_SetBPEx(Addr = 0x20000000, Type = 0xFFFFFFF2)  returns 0x0000000A (0000ms, 0551ms total)
T45C0 002:685 JLINK_Go() -- CPU_ReadMem(4 bytes @ 0xE0001000) (0003ms, 0554ms total)
T45C0 002:688 JLINK_IsHalted()  returns FALSE (0000ms, 0554ms total)
T45C0 002:783 JLINK_IsHalted() -- CPU_ReadMem(2 bytes @ 0x20000000)  returns TRUE (0003ms, 0557ms total)
T45C0 002:786 JLINK_ReadReg(R15 (PC))  returns 0x20000000 (0000ms, 0554ms total)
T45C0 002:786 JLINK_ClrBPEx(BPHandle = 0x0000000A)  returns 0x00 (0000ms, 0554ms total)
T45C0 002:786 JLINK_ReadReg(R0)  returns 0x00000000 (0000ms, 0554ms total)
T45C0 002:788 JLINK_WriteMem(0x20000180, 0x0400 Bytes, ...) - Data: 00 F8 01 3B 52 1E F9 D2 70 47 D2 B2 01 E0 00 F8 ... -- CPU_WriteMem(1024 bytes @ 0x20000180)  returns 0x400 (0012ms, 0566ms total)
T45C0 002:800 JLINK_WriteReg(R0, 0x08000400)  returns 0x00 (0000ms, 0566ms total)
T45C0 002:800 JLINK_WriteReg(R1, 0x00000400)  returns 0x00 (0000ms, 0566ms total)
T45C0 002:800 JLINK_WriteReg(R2, 0x20000180)  returns 0x00 (0000ms, 0566ms total)
T45C0 002:800 JLINK_WriteReg(R3, 0x00000000)  returns 0x00 (0000ms, 0566ms total)
T45C0 002:800 JLINK_WriteReg(R4, 0x00000000)  returns 0x00 (0000ms, 0566ms total)
T45C0 002:800 JLINK_WriteReg(R5, 0x00000000)  returns 0x00 (0000ms, 0566ms total)
T45C0 002:800 JLINK_WriteReg(R6, 0x00000000)  returns 0x00 (0000ms, 0566ms total)
T45C0 002:800 JLINK_WriteReg(R7, 0x00000000)  returns 0x00 (0000ms, 0566ms total)
T45C0 002:800 JLINK_WriteReg(R8, 0x00000000)  returns 0x00 (0000ms, 0566ms total)
T45C0 002:800 JLINK_WriteReg(R9, 0x2000017C)  returns 0x00 (0000ms, 0566ms total)
T45C0 002:800 JLINK_WriteReg(R10, 0x00000000)  returns 0x00 (0000ms, 0566ms total)
T45C0 002:801 JLINK_WriteReg(R11, 0x00000000)  returns 0x00 (0000ms, 0566ms total)
T45C0 002:801 JLINK_WriteReg(R12, 0x00000000)  returns 0x00 (0000ms, 0566ms total)
T45C0 002:801 JLINK_WriteReg(R13 (SP), 0x20001000)  returns 0x00 (0000ms, 0566ms total)
T45C0 002:801 JLINK_WriteReg(R14, 0x20000001)  returns 0x00 (0000ms, 0566ms total)
T45C0 002:801 JLINK_WriteReg(R15 (PC), 0x20000108)  returns 0x00 (0000ms, 0566ms total)
T45C0 002:801 JLINK_WriteReg(XPSR, 0x01000000)  returns 0x00 (0000ms, 0566ms total)
T45C0 002:801 JLINK_WriteReg(MSP, 0x20001000)  returns 0x00 (0000ms, 0566ms total)
T45C0 002:801 JLINK_WriteReg(PSP, 0x20001000)  returns 0x00 (0000ms, 0566ms total)
T45C0 002:801 JLINK_WriteReg(CFBP, 0x00000000)  returns 0x00 (0000ms, 0566ms total)
T45C0 002:801 JLINK_SetBPEx(Addr = 0x20000000, Type = 0xFFFFFFF2)  returns 0x0000000B (0000ms, 0566ms total)
T45C0 002:801 JLINK_Go() -- CPU_ReadMem(4 bytes @ 0xE0001000) (0002ms, 0568ms total)
T45C0 002:803 JLINK_IsHalted()  returns FALSE (0000ms, 0568ms total)
T45C0 002:809 JLINK_IsHalted() -- CPU_ReadMem(2 bytes @ 0x20000000)  returns TRUE (0003ms, 0571ms total)
T45C0 002:812 JLINK_ReadReg(R15 (PC))  returns 0x20000000 (0000ms, 0568ms total)
T45C0 002:812 JLINK_ClrBPEx(BPHandle = 0x0000000B)  returns 0x00 (0000ms, 0568ms total)
T45C0 002:812 JLINK_ReadReg(R0)  returns 0x00000000 (0000ms, 0568ms total)
T45C0 002:813 JLINK_WriteMem(0x20000180, 0x0400 Bytes, ...) - Data: 00 21 70 47 21 FA 02 F3 D0 40 C2 F1 20 02 91 40 ... -- CPU_WriteMem(1024 bytes @ 0x20000180)  returns 0x400 (0013ms, 0581ms total)
T45C0 002:826 JLINK_WriteReg(R0, 0x08000800)  returns 0x00 (0000ms, 0581ms total)
T45C0 002:826 JLINK_WriteReg(R1, 0x00000400)  returns 0x00 (0000ms, 0581ms total)
T45C0 002:826 JLINK_WriteReg(R2, 0x20000180)  returns 0x00 (0000ms, 0581ms total)
T45C0 002:826 JLINK_WriteReg(R3, 0x00000000)  returns 0x00 (0000ms, 0581ms total)
T45C0 002:826 JLINK_WriteReg(R4, 0x00000000)  returns 0x00 (0000ms, 0581ms total)
T45C0 002:826 JLINK_WriteReg(R5, 0x00000000)  returns 0x00 (0000ms, 0581ms total)
T45C0 002:826 JLINK_WriteReg(R6, 0x00000000)  returns 0x00 (0000ms, 0581ms total)
T45C0 002:826 JLINK_WriteReg(R7, 0x00000000)  returns 0x00 (0000ms, 0581ms total)
T45C0 002:826 JLINK_WriteReg(R8, 0x00000000)  returns 0x00 (0000ms, 0581ms total)
T45C0 002:826 JLINK_WriteReg(R9, 0x2000017C)  returns 0x00 (0000ms, 0581ms total)
T45C0 002:826 JLINK_WriteReg(R10, 0x00000000)  returns 0x00 (0000ms, 0581ms total)
T45C0 002:826 JLINK_WriteReg(R11, 0x00000000)  returns 0x00 (0000ms, 0581ms total)
T45C0 002:826 JLINK_WriteReg(R12, 0x00000000)  returns 0x00 (0000ms, 0581ms total)
T45C0 002:826 JLINK_WriteReg(R13 (SP), 0x20001000)  returns 0x00 (0000ms, 0581ms total)
T45C0 002:826 JLINK_WriteReg(R14, 0x20000001)  returns 0x00 (0000ms, 0581ms total)
T45C0 002:826 JLINK_WriteReg(R15 (PC), 0x20000108)  returns 0x00 (0000ms, 0581ms total)
T45C0 002:826 JLINK_WriteReg(XPSR, 0x01000000)  returns 0x00 (0000ms, 0581ms total)
T45C0 002:826 JLINK_WriteReg(MSP, 0x20001000)  returns 0x00 (0000ms, 0581ms total)
T45C0 002:826 JLINK_WriteReg(PSP, 0x20001000)  returns 0x00 (0001ms, 0582ms total)
T45C0 002:827 JLINK_WriteReg(CFBP, 0x00000000)  returns 0x00 (0000ms, 0582ms total)
T45C0 002:827 JLINK_SetBPEx(Addr = 0x20000000, Type = 0xFFFFFFF2)  returns 0x0000000C (0000ms, 0582ms total)
T45C0 002:827 JLINK_Go() -- CPU_ReadMem(4 bytes @ 0xE0001000) (0002ms, 0584ms total)
T45C0 002:829 JLINK_IsHalted()  returns FALSE (0000ms, 0584ms total)
T45C0 002:995 JLINK_IsHalted() -- CPU_ReadMem(2 bytes @ 0x20000000)  returns TRUE (0003ms, 0587ms total)
T45C0 002:998 JLINK_ReadReg(R15 (PC))  returns 0x20000000 (0000ms, 0584ms total)
T45C0 002:998 JLINK_ClrBPEx(BPHandle = 0x0000000C)  returns 0x00 (0000ms, 0584ms total)
T45C0 002:998 JLINK_ReadReg(R0)  returns 0x00000000 (0000ms, 0584ms total)
T45C0 002:999 JLINK_WriteMem(0x20000180, 0x0400 Bytes, ...) - Data: C0 0A D3 ED 01 0A 20 EE 20 0A 81 ED 00 0A C2 78 ... -- CPU_WriteMem(1024 bytes @ 0x20000180)  returns 0x400 (0012ms, 0596ms total)
T45C0 003:012 JLINK_WriteReg(R0, 0x08000C00)  returns 0x00 (0000ms, 0596ms total)
T45C0 003:012 JLINK_WriteReg(R1, 0x00000400)  returns 0x00 (0000ms, 0596ms total)
T45C0 003:012 JLINK_WriteReg(R2, 0x20000180)  returns 0x00 (0000ms, 0596ms total)
T45C0 003:012 JLINK_WriteReg(R3, 0x00000000)  returns 0x00 (0000ms, 0596ms total)
T45C0 003:012 JLINK_WriteReg(R4, 0x00000000)  returns 0x00 (0000ms, 0596ms total)
T45C0 003:012 JLINK_WriteReg(R5, 0x00000000)  returns 0x00 (0000ms, 0596ms total)
T45C0 003:012 JLINK_WriteReg(R6, 0x00000000)  returns 0x00 (0000ms, 0596ms total)
T45C0 003:012 JLINK_WriteReg(R7, 0x00000000)  returns 0x00 (0000ms, 0596ms total)
T45C0 003:012 JLINK_WriteReg(R8, 0x00000000)  returns 0x00 (0000ms, 0596ms total)
T45C0 003:012 JLINK_WriteReg(R9, 0x2000017C)  returns 0x00 (0000ms, 0596ms total)
T45C0 003:012 JLINK_WriteReg(R10, 0x00000000)  returns 0x00 (0000ms, 0596ms total)
T45C0 003:012 JLINK_WriteReg(R11, 0x00000000)  returns 0x00 (0000ms, 0596ms total)
T45C0 003:012 JLINK_WriteReg(R12, 0x00000000)  returns 0x00 (0000ms, 0596ms total)
T45C0 003:012 JLINK_WriteReg(R13 (SP), 0x20001000)  returns 0x00 (0000ms, 0596ms total)
T45C0 003:012 JLINK_WriteReg(R14, 0x20000001)  returns 0x00 (0000ms, 0596ms total)
T45C0 003:012 JLINK_WriteReg(R15 (PC), 0x20000108)  returns 0x00 (0000ms, 0596ms total)
T45C0 003:012 JLINK_WriteReg(XPSR, 0x01000000)  returns 0x00 (0000ms, 0596ms total)
T45C0 003:012 JLINK_WriteReg(MSP, 0x20001000)  returns 0x00 (0000ms, 0596ms total)
T45C0 003:012 JLINK_WriteReg(PSP, 0x20001000)  returns 0x00 (0000ms, 0596ms total)
T45C0 003:012 JLINK_WriteReg(CFBP, 0x00000000)  returns 0x00 (0000ms, 0596ms total)
T45C0 003:012 JLINK_SetBPEx(Addr = 0x20000000, Type = 0xFFFFFFF2)  returns 0x0000000D (0000ms, 0596ms total)
T45C0 003:012 JLINK_Go() -- CPU_ReadMem(4 bytes @ 0xE0001000) (0003ms, 0599ms total)
T45C0 003:015 JLINK_IsHalted()  returns FALSE (0000ms, 0599ms total)
T45C0 003:101 JLINK_IsHalted() -- CPU_ReadMem(2 bytes @ 0x20000000)  returns TRUE (0003ms, 0602ms total)
T45C0 003:104 JLINK_ReadReg(R15 (PC))  returns 0x20000000 (0000ms, 0599ms total)
T45C0 003:104 JLINK_ClrBPEx(BPHandle = 0x0000000D)  returns 0x00 (0000ms, 0599ms total)
T45C0 003:104 JLINK_ReadReg(R0)  returns 0x00000000 (0000ms, 0599ms total)
T45C0 003:106 JLINK_WriteMem(0x20000180, 0x0400 Bytes, ...) - Data: 51 78 8D F8 07 10 01 23 6A 46 02 49 00 F0 8C FE ... -- CPU_WriteMem(1024 bytes @ 0x20000180)  returns 0x400 (0012ms, 0611ms total)
T45C0 003:118 JLINK_WriteReg(R0, 0x08001000)  returns 0x00 (0000ms, 0611ms total)
T45C0 003:118 JLINK_WriteReg(R1, 0x00000400)  returns 0x00 (0000ms, 0611ms total)
T45C0 003:118 JLINK_WriteReg(R2, 0x20000180)  returns 0x00 (0000ms, 0611ms total)
T45C0 003:118 JLINK_WriteReg(R3, 0x00000000)  returns 0x00 (0000ms, 0611ms total)
T45C0 003:118 JLINK_WriteReg(R4, 0x00000000)  returns 0x00 (0000ms, 0611ms total)
T45C0 003:118 JLINK_WriteReg(R5, 0x00000000)  returns 0x00 (0000ms, 0611ms total)
T45C0 003:118 JLINK_WriteReg(R6, 0x00000000)  returns 0x00 (0000ms, 0611ms total)
T45C0 003:118 JLINK_WriteReg(R7, 0x00000000)  returns 0x00 (0000ms, 0611ms total)
T45C0 003:118 JLINK_WriteReg(R8, 0x00000000)  returns 0x00 (0000ms, 0611ms total)
T45C0 003:118 JLINK_WriteReg(R9, 0x2000017C)  returns 0x00 (0000ms, 0611ms total)
T45C0 003:118 JLINK_WriteReg(R10, 0x00000000)  returns 0x00 (0000ms, 0611ms total)
T45C0 003:118 JLINK_WriteReg(R11, 0x00000000)  returns 0x00 (0000ms, 0611ms total)
T45C0 003:118 JLINK_WriteReg(R12, 0x00000000)  returns 0x00 (0000ms, 0611ms total)
T45C0 003:118 JLINK_WriteReg(R13 (SP), 0x20001000)  returns 0x00 (0000ms, 0611ms total)
T45C0 003:118 JLINK_WriteReg(R14, 0x20000001)  returns 0x00 (0000ms, 0611ms total)
T45C0 003:118 JLINK_WriteReg(R15 (PC), 0x20000108)  returns 0x00 (0000ms, 0611ms total)
T45C0 003:118 JLINK_WriteReg(XPSR, 0x01000000)  returns 0x00 (0000ms, 0611ms total)
T45C0 003:118 JLINK_WriteReg(MSP, 0x20001000)  returns 0x00 (0000ms, 0611ms total)
T45C0 003:118 JLINK_WriteReg(PSP, 0x20001000)  returns 0x00 (0000ms, 0611ms total)
T45C0 003:119 JLINK_WriteReg(CFBP, 0x00000000)  returns 0x00 (0000ms, 0612ms total)
T45C0 003:119 JLINK_SetBPEx(Addr = 0x20000000, Type = 0xFFFFFFF2)  returns 0x0000000E (0000ms, 0612ms total)
T45C0 003:119 JLINK_Go() -- CPU_ReadMem(4 bytes @ 0xE0001000) (0002ms, 0614ms total)
T45C0 003:121 JLINK_IsHalted()  returns FALSE (0000ms, 0614ms total)
T45C0 003:125 JLINK_IsHalted()  returns FALSE (0000ms, 0614ms total)
T45C0 003:127 JLINK_IsHalted() -- CPU_ReadMem(2 bytes @ 0x20000000)  returns TRUE (0003ms, 0617ms total)
T45C0 003:130 JLINK_ReadReg(R15 (PC))  returns 0x20000000 (0000ms, 0614ms total)
T45C0 003:130 JLINK_ClrBPEx(BPHandle = 0x0000000E)  returns 0x00 (0000ms, 0614ms total)
T45C0 003:130 JLINK_ReadReg(R0)  returns 0x00000000 (0000ms, 0614ms total)
T45C0 003:136 JLINK_WriteMem(0x20000180, 0x0400 Bytes, ...) - Data: 10 B5 01 46 00 20 8B 69 8A 6A 4F F0 C0 74 53 B1 ... -- CPU_WriteMem(1024 bytes @ 0x20000180)  returns 0x400 (0012ms, 0626ms total)
T45C0 003:148 JLINK_WriteReg(R0, 0x08001400)  returns 0x00 (0000ms, 0626ms total)
T45C0 003:148 JLINK_WriteReg(R1, 0x00000400)  returns 0x00 (0000ms, 0626ms total)
T45C0 003:148 JLINK_WriteReg(R2, 0x20000180)  returns 0x00 (0000ms, 0626ms total)
T45C0 003:148 JLINK_WriteReg(R3, 0x00000000)  returns 0x00 (0000ms, 0626ms total)
T45C0 003:148 JLINK_WriteReg(R4, 0x00000000)  returns 0x00 (0000ms, 0626ms total)
T45C0 003:148 JLINK_WriteReg(R5, 0x00000000)  returns 0x00 (0000ms, 0626ms total)
T45C0 003:148 JLINK_WriteReg(R6, 0x00000000)  returns 0x00 (0001ms, 0627ms total)
T45C0 003:149 JLINK_WriteReg(R7, 0x00000000)  returns 0x00 (0000ms, 0627ms total)
T45C0 003:149 JLINK_WriteReg(R8, 0x00000000)  returns 0x00 (0000ms, 0627ms total)
T45C0 003:149 JLINK_WriteReg(R9, 0x2000017C)  returns 0x00 (0000ms, 0627ms total)
T45C0 003:149 JLINK_WriteReg(R10, 0x00000000)  returns 0x00 (0000ms, 0627ms total)
T45C0 003:149 JLINK_WriteReg(R11, 0x00000000)  returns 0x00 (0000ms, 0627ms total)
T45C0 003:149 JLINK_WriteReg(R12, 0x00000000)  returns 0x00 (0000ms, 0627ms total)
T45C0 003:149 JLINK_WriteReg(R13 (SP), 0x20001000)  returns 0x00 (0000ms, 0627ms total)
T45C0 003:149 JLINK_WriteReg(R14, 0x20000001)  returns 0x00 (0000ms, 0627ms total)
T45C0 003:149 JLINK_WriteReg(R15 (PC), 0x20000108)  returns 0x00 (0000ms, 0627ms total)
T45C0 003:149 JLINK_WriteReg(XPSR, 0x01000000)  returns 0x00 (0000ms, 0627ms total)
T45C0 003:149 JLINK_WriteReg(MSP, 0x20001000)  returns 0x00 (0000ms, 0627ms total)
T45C0 003:149 JLINK_WriteReg(PSP, 0x20001000)  returns 0x00 (0000ms, 0627ms total)
T45C0 003:149 JLINK_WriteReg(CFBP, 0x00000000)  returns 0x00 (0000ms, 0627ms total)
T45C0 003:149 JLINK_SetBPEx(Addr = 0x20000000, Type = 0xFFFFFFF2)  returns 0x0000000F (0000ms, 0627ms total)
T45C0 003:149 JLINK_Go() -- CPU_ReadMem(4 bytes @ 0xE0001000) (0002ms, 0629ms total)
T45C0 003:151 JLINK_IsHalted()  returns FALSE (0001ms, 0630ms total)
T45C0 003:250 JLINK_IsHalted() -- CPU_ReadMem(2 bytes @ 0x20000000)  returns TRUE (0003ms, 0632ms total)
T45C0 003:253 JLINK_ReadReg(R15 (PC))  returns 0x20000000 (0000ms, 0629ms total)
T45C0 003:253 JLINK_ClrBPEx(BPHandle = 0x0000000F)  returns 0x00 (0000ms, 0629ms total)
T45C0 003:253 JLINK_ReadReg(R0)  returns 0x00000000 (0000ms, 0629ms total)
T45C0 003:258 JLINK_WriteMem(0x20000180, 0x0400 Bytes, ...) - Data: 10 EE 10 0A FE F7 B9 FF 53 EC 18 2B FE F7 B6 FE ... -- CPU_WriteMem(1024 bytes @ 0x20000180)  returns 0x400 (0013ms, 0642ms total)
T45C0 003:271 JLINK_WriteReg(R0, 0x08001800)  returns 0x00 (0000ms, 0642ms total)
T45C0 003:271 JLINK_WriteReg(R1, 0x00000400)  returns 0x00 (0000ms, 0642ms total)
T45C0 003:271 JLINK_WriteReg(R2, 0x20000180)  returns 0x00 (0000ms, 0642ms total)
T45C0 003:271 JLINK_WriteReg(R3, 0x00000000)  returns 0x00 (0000ms, 0642ms total)
T45C0 003:271 JLINK_WriteReg(R4, 0x00000000)  returns 0x00 (0000ms, 0642ms total)
T45C0 003:271 JLINK_WriteReg(R5, 0x00000000)  returns 0x00 (0000ms, 0642ms total)
T45C0 003:271 JLINK_WriteReg(R6, 0x00000000)  returns 0x00 (0000ms, 0642ms total)
T45C0 003:271 JLINK_WriteReg(R7, 0x00000000)  returns 0x00 (0000ms, 0642ms total)
T45C0 003:271 JLINK_WriteReg(R8, 0x00000000)  returns 0x00 (0000ms, 0642ms total)
T45C0 003:271 JLINK_WriteReg(R9, 0x2000017C)  returns 0x00 (0000ms, 0642ms total)
T45C0 003:271 JLINK_WriteReg(R10, 0x00000000)  returns 0x00 (0000ms, 0642ms total)
T45C0 003:271 JLINK_WriteReg(R11, 0x00000000)  returns 0x00 (0000ms, 0642ms total)
T45C0 003:271 JLINK_WriteReg(R12, 0x00000000)  returns 0x00 (0000ms, 0642ms total)
T45C0 003:271 JLINK_WriteReg(R13 (SP), 0x20001000)  returns 0x00 (0000ms, 0642ms total)
T45C0 003:271 JLINK_WriteReg(R14, 0x20000001)  returns 0x00 (0000ms, 0642ms total)
T45C0 003:271 JLINK_WriteReg(R15 (PC), 0x20000108)  returns 0x00 (0000ms, 0642ms total)
T45C0 003:271 JLINK_WriteReg(XPSR, 0x01000000)  returns 0x00 (0000ms, 0642ms total)
T45C0 003:271 JLINK_WriteReg(MSP, 0x20001000)  returns 0x00 (0000ms, 0642ms total)
T45C0 003:271 JLINK_WriteReg(PSP, 0x20001000)  returns 0x00 (0000ms, 0642ms total)
T45C0 003:271 JLINK_WriteReg(CFBP, 0x00000000)  returns 0x00 (0000ms, 0642ms total)
T45C0 003:271 JLINK_SetBPEx(Addr = 0x20000000, Type = 0xFFFFFFF2)  returns 0x00000010 (0000ms, 0642ms total)
T45C0 003:271 JLINK_Go() -- CPU_ReadMem(4 bytes @ 0xE0001000) (0002ms, 0644ms total)
T45C0 003:273 JLINK_IsHalted()  returns FALSE (0001ms, 0645ms total)
T45C0 003:331 JLINK_IsHalted() -- CPU_ReadMem(2 bytes @ 0x20000000)  returns TRUE (0003ms, 0647ms total)
T45C0 003:334 JLINK_ReadReg(R15 (PC))  returns 0x20000000 (0000ms, 0644ms total)
